name,type,start_time,duration,"mosi","miso"
"SPI","error",0.856725208,0.000352167,,
"SPI","enable",1.549029333,0.000000042,,
"SPI","result",1.549029833,0.000007542,0x30,0x2F
"SPI","disable",1.549038333,0.000000042,,
"SPI","enable",1.556106958,0.000000042,,
"SPI","result",1.556107458,0.000007542,0xB1,0x00
"SPI","result",1.556115458,0.000007542,0x00,0x0F
"SPI","disable",1.556124,0.000000042,,
"SPI","enable",1.5562065,0.000000042,,
"SPI","result",1.556207,0.000007542,0x00,0x0F
"SPI","result",1.556215,0.000007542,0x06,0x0F
"SPI","disable",1.5562235,0.000000042,,
"SPI","enable",1.556261083,0.000000042,,
"SPI","result",1.556261583,0.000007542,0x01,0x0F
"SPI","result",1.556269583,0.000007542,0x2E,0x0F
"SPI","disable",1.556278125,0.000000042,,
"SPI","enable",1.556313083,0.000000042,,
"SPI","result",1.556313583,0.000007583,0x02,0x0F
"SPI","result",1.556321583,0.000007583,0x00,0x0F
"SPI","disable",1.556330125,0.000000042,,
"SPI","enable",1.556365125,0.000000042,,
"SPI","result",1.556365625,0.000007542,0x03,0x0F
"SPI","result",1.556373625,0.000007542,0x07,0x0F
"SPI","disable",1.556382125,0.000000042,,
"SPI","enable",1.556417125,0.000000042,,
"SPI","result",1.556417625,0.000007542,0x04,0x0F
"SPI","result",1.556425625,0.000007542,0x3D,0x0F
"SPI","disable",1.556434125,0.000000042,,
"SPI","enable",1.556469167,0.000000042,,
"SPI","result",1.556469667,0.000007542,0x05,0x0F
"SPI","result",1.556477667,0.000007542,0x54,0x0F
"SPI","disable",1.556486167,0.000000042,,
"SPI","enable",1.556521167,0.000000042,,
"SPI","result",1.556521667,0.000007542,0x06,0x0F
"SPI","result",1.556529667,0.000007542,0xFF,0x0F
"SPI","disable",1.556538167,0.000000042,,
"SPI","enable",1.556573167,0.000000042,,
"SPI","result",1.556573667,0.000007542,0x07,0x0F
"SPI","result",1.556581667,0.000007542,0x00,0x0F
"SPI","disable",1.556590208,0.000000042,,
"SPI","enable",1.556625167,0.000000042,,
"SPI","result",1.556625667,0.000007542,0x08,0x0F
"SPI","result",1.556633667,0.000007542,0x00,0x0F
"SPI","disable",1.556642208,0.000000042,,
"SPI","enable",1.556677208,0.000000042,,
"SPI","result",1.556677708,0.000007542,0x09,0x0F
"SPI","result",1.556685708,0.000007542,0x00,0x0F
"SPI","disable",1.556694208,0.000000042,,
"SPI","enable",1.556729208,0.000000042,,
"SPI","result",1.556729708,0.000007542,0x0B,0x0F
"SPI","result",1.556737708,0.000007542,0x08,0x0F
"SPI","disable",1.556746208,0.000000042,,
"SPI","enable",1.556781208,0.000000042,,
"SPI","result",1.556781708,0.000007542,0x0C,0x0F
"SPI","result",1.556789708,0.000007542,0x00,0x0F
"SPI","disable",1.556798208,0.000000042,,
"SPI","enable",1.55683325,0.000000042,,
"SPI","result",1.55683375,0.000007542,0x0D,0x0F
"SPI","result",1.55684175,0.000007542,0x21,0x0F
"SPI","disable",1.55685025,0.000000042,,
"SPI","enable",1.55688525,0.000000042,,
"SPI","result",1.55688575,0.000007542,0x0E,0x0F
"SPI","result",1.55689375,0.000007542,0x6B,0x0F
"SPI","disable",1.556902292,0.000000042,,
"SPI","enable",1.55693725,0.000000042,,
"SPI","result",1.55693775,0.000007542,0x0F,0x0F
"SPI","result",1.55694575,0.000007542,0xD0,0x0F
"SPI","disable",1.556954292,0.000000042,,
"SPI","enable",1.55698925,0.000000042,,
"SPI","result",1.55698975,0.000007542,0x10,0x0F
"SPI","result",1.55699775,0.000007542,0x5C,0x0F
"SPI","disable",1.557006292,0.000000042,,
"SPI","enable",1.557041292,0.000000042,,
"SPI","result",1.557041792,0.000007542,0x11,0x0F
"SPI","result",1.557049792,0.000007542,0x0F,0x0F
"SPI","disable",1.557058292,0.000000042,,
"SPI","enable",1.557093292,0.000000042,,
"SPI","result",1.557093792,0.000007542,0x12,0x0F
"SPI","result",1.557101792,0.000007542,0x05,0x0F
"SPI","disable",1.557110292,0.000000042,,
"SPI","enable",1.557145292,0.000000042,,
"SPI","result",1.557145792,0.000007542,0x13,0x0F
"SPI","result",1.557153792,0.000007542,0x22,0x0F
"SPI","disable",1.557162292,0.000000042,,
"SPI","enable",1.557197333,0.000000042,,
"SPI","result",1.557197833,0.000007542,0x14,0x0F
"SPI","result",1.557205833,0.000007542,0xF8,0x0F
"SPI","disable",1.557214333,0.000000042,,
"SPI","enable",1.557249333,0.000000042,,
"SPI","result",1.557249833,0.000007542,0x15,0x0F
"SPI","result",1.557257833,0.000007542,0x50,0x0F
"SPI","disable",1.557266375,0.000000042,,
"SPI","enable",1.557301333,0.000000042,,
"SPI","result",1.557301833,0.000007542,0x16,0x0F
"SPI","result",1.557309833,0.000007542,0x07,0x0F
"SPI","disable",1.557318375,0.000000042,,
"SPI","enable",1.557353375,0.000000042,,
"SPI","result",1.557353833,0.000007583,0x17,0x0F
"SPI","result",1.557361875,0.000007542,0x30,0x0F
"SPI","disable",1.557370375,0.000000042,,
"SPI","enable",1.557405375,0.000000042,,
"SPI","result",1.557405875,0.000007542,0x18,0x0F
"SPI","result",1.557413875,0.000007542,0x18,0x0F
"SPI","disable",1.557422375,0.000000042,,
"SPI","enable",1.557457375,0.000000042,,
"SPI","result",1.557457875,0.000007542,0x19,0x0F
"SPI","result",1.557465875,0.000007542,0x16,0x0F
"SPI","disable",1.557474375,0.000000042,,
"SPI","enable",1.557509375,0.000000042,,
"SPI","result",1.557509875,0.000007542,0x1A,0x0F
"SPI","result",1.557517875,0.000007542,0x6C,0x0F
"SPI","disable",1.557526375,0.000000042,,
"SPI","enable",1.557561417,0.000000042,,
"SPI","result",1.557561917,0.000007542,0x1B,0x0F
"SPI","result",1.557569917,0.000007542,0x43,0x0F
"SPI","disable",1.557578417,0.000000042,,
"SPI","enable",1.557613417,0.000000042,,
"SPI","result",1.557613917,0.000007542,0x1C,0x0F
"SPI","result",1.557621917,0.000007542,0x40,0x0F
"SPI","disable",1.557630458,0.000000042,,
"SPI","enable",1.557665417,0.000000042,,
"SPI","result",1.557665917,0.000007542,0x1D,0x0F
"SPI","result",1.557673917,0.000007542,0x91,0x0F
"SPI","disable",1.557682458,0.000000042,,
"SPI","enable",1.557717458,0.000000042,,
"SPI","result",1.557717958,0.000007542,0x21,0x0F
"SPI","result",1.557725958,0.000007542,0x56,0x0F
"SPI","disable",1.557734458,0.000000042,,
"SPI","enable",1.557769458,0.000000042,,
"SPI","result",1.557769958,0.000007542,0x22,0x0F
"SPI","result",1.557777958,0.000007542,0x10,0x0F
"SPI","disable",1.557786458,0.000000042,,
"SPI","enable",1.557821458,0.000000042,,
"SPI","result",1.557821958,0.000007542,0x23,0x0F
"SPI","result",1.557829958,0.000007542,0xE9,0x0F
"SPI","disable",1.557838458,0.000000042,,
"SPI","enable",1.557873458,0.000000042,,
"SPI","result",1.557873958,0.000007542,0x24,0x0F
"SPI","result",1.557881958,0.000007542,0x0A,0x0F
"SPI","disable",1.5578905,0.000000042,,
"SPI","enable",1.5579255,0.000000042,,
"SPI","result",1.557926,0.000007542,0x25,0x0F
"SPI","result",1.557934,0.000007542,0x00,0x0F
"SPI","disable",1.5579425,0.000000042,,
"SPI","enable",1.5579775,0.000000042,,
"SPI","result",1.557978,0.000007542,0x26,0x0F
"SPI","result",1.557986,0.000007542,0x11,0x0F
"SPI","disable",1.557994542,0.000000042,,
"SPI","enable",1.5580295,0.000000042,,
"SPI","result",1.55803,0.000007583,0x2C,0x0F
"SPI","result",1.558038,0.000007583,0x88,0x0F
"SPI","disable",1.558046542,0.000000042,,
"SPI","enable",1.558081542,0.000000042,,
"SPI","result",1.558082042,0.000007542,0x2D,0x0F
"SPI","result",1.558090042,0.000007542,0x31,0x0F
"SPI","disable",1.558098542,0.000000042,,
"SPI","enable",1.558133542,0.000000042,,
"SPI","result",1.558134042,0.000007542,0x2E,0x0F
"SPI","result",1.558142042,0.000007542,0x0B,0x0F
"SPI","disable",1.558150542,0.000000042,,
"SPI","enable",1.558186542,0.000000042,,
"SPI","result",1.558187042,0.000007542,0x33,0x0F
"SPI","disable",1.558195542,0.000000042,,
"SPI","enable",1.558244708,0.000000042,,
"SPI","result",1.558245208,0.000007542,0x8B,0x40
"SPI","result",1.558253208,0.000007542,0x00,0x08
"SPI","disable",1.558261708,0.000000042,,
"SPI","enable",1.558300125,0.000000042,,
"SPI","result",1.558300625,0.000007542,0x8C,0x40
"SPI","result",1.558308625,0.000007542,0x00,0x00
"SPI","disable",1.558317125,0.000000042,,
"SPI","enable",1.558356125,0.000000042,,
"SPI","result",1.558356625,0.000007542,0x8D,0x40
"SPI","result",1.558364625,0.000007542,0x00,0x21
"SPI","disable",1.558373167,0.000000042,,
"SPI","enable",1.558411542,0.000000042,,
"SPI","result",1.558412042,0.000007542,0x8E,0x40
"SPI","result",1.558420042,0.000007542,0x00,0x6B
"SPI","disable",1.558428542,0.000000042,,
"SPI","enable",1.558466917,0.000000042,,
"SPI","result",1.558467417,0.000007542,0x8F,0x40
"SPI","result",1.558475417,0.000007542,0x00,0xD0
"SPI","disable",1.558483958,0.000000042,,
"SPI","enable",1.558522333,0.000000042,,
"SPI","result",1.558522833,0.000007542,0x90,0x40
"SPI","result",1.558530833,0.000007542,0x00,0x5C
"SPI","disable",1.558539333,0.000000042,,
"SPI","enable",1.558578333,0.000000042,,
"SPI","result",1.558578833,0.000007542,0x91,0x40
"SPI","result",1.558586833,0.000007542,0x00,0x0F
"SPI","disable",1.558595375,0.000000042,,
"SPI","enable",1.55863375,0.000000042,,
"SPI","result",1.55863425,0.000007542,0x92,0x40
"SPI","result",1.55864225,0.000007542,0x00,0x05
"SPI","disable",1.55865075,0.000000042,,
"SPI","enable",1.558689167,0.000000042,,
"SPI","result",1.558689667,0.000007542,0x93,0x40
"SPI","result",1.558697667,0.000007542,0x00,0x22
"SPI","disable",1.558706167,0.000000042,,
"SPI","enable",1.558744542,0.000000042,,
"SPI","result",1.558745042,0.000007542,0x94,0x40
"SPI","result",1.558753042,0.000007542,0x00,0xF8
"SPI","disable",1.558761542,0.000000042,,
"SPI","enable",1.558800583,0.000000042,,
"SPI","result",1.558801083,0.000007542,0x95,0x40
"SPI","result",1.558809083,0.000007542,0x00,0x50
"SPI","disable",1.558817583,0.000000042,,
"SPI","enable",1.558855958,0.000000042,,
"SPI","result",1.558856458,0.000007542,0xA3,0x40
"SPI","result",1.558864458,0.000007542,0x00,0xE9
"SPI","disable",1.558872958,0.000000042,,
"SPI","enable",1.558911375,0.000000042,,
"SPI","result",1.558911875,0.000007542,0xA4,0x40
"SPI","result",1.558919875,0.000007542,0x00,0x2E
"SPI","disable",1.558928375,0.000000042,,
"SPI","enable",1.558967375,0.000000042,,
"SPI","result",1.558967875,0.000007542,0xA5,0x00
"SPI","result",1.558975875,0.000007542,0x00,0x17
"SPI","disable",1.558984417,0.000000042,,
"SPI","enable",1.559022792,0.000000042,,
"SPI","result",1.559023292,0.000007542,0xA6,0x00
"SPI","result",1.559031292,0.000007542,0x00,0x11
"SPI","disable",1.559039792,0.000000042,,
"SPI","enable",1.575810625,0.000000042,,
"SPI","result",1.575811125,0.000007542,0x3A,0x0F
"SPI","disable",1.575819625,0.000000042,,
"SPI","enable",1.575856792,0.000000042,,
"SPI","result",1.575857292,0.000007542,0x34,0x0F
"SPI","disable",1.575865792,0.000000042,,
"SPI","enable",1.580708875,0.000000042,,
"SPI","result",1.580709375,0.000007542,0xB5,0x10
"SPI","result",1.580717375,0.000007542,0x00,0x5F
"SPI","disable",1.580725875,0.000000042,,
"SPI","enable",1.587083875,0.000000042,,
"SPI","result",1.587084375,0.000007542,0xB5,0x20
"SPI","result",1.587092375,0.000007542,0x00,0x2F
"SPI","disable",1.587100875,0.000000042,,
"SPI","enable",1.593244958,0.000000042,,
"SPI","result",1.593245458,0.000007542,0xB5,0x20
"SPI","result",1.593253458,0.000007542,0x00,0x2F
"SPI","disable",1.593262,0.000000042,,
"SPI","enable",1.600063833,0.000000042,,
"SPI","result",1.600064333,0.000007542,0xB5,0x20
"SPI","result",1.600072333,0.000007542,0x00,0x2F
"SPI","disable",1.600080833,0.000000042,,
"SPI","enable",1.605590625,0.000000042,,
"SPI","result",1.605591125,0.000007542,0xB5,0x20
"SPI","result",1.605599125,0.000007542,0x00,0x2F
"SPI","disable",1.605607625,0.000000042,,
"SPI","enable",1.61173725,0.000000042,,
"SPI","result",1.61173775,0.000007542,0xB5,0x20
"SPI","result",1.61174575,0.000007542,0x00,0x2F
"SPI","disable",1.61175425,0.000000042,,
"SPI","enable",1.61789775,0.000000042,,
"SPI","result",1.61789825,0.000007542,0xB5,0x20
"SPI","result",1.61790625,0.000007542,0x00,0x2F
"SPI","disable",1.61791475,0.000000042,,
"SPI","enable",1.624061083,0.000000042,,
"SPI","result",1.624061583,0.000007542,0xB5,0x20
"SPI","result",1.624069583,0.000007542,0x00,0x2F
"SPI","disable",1.624078125,0.000000042,,
"SPI","enable",1.636108667,0.000000042,,
"SPI","result",1.636109167,0.000007542,0x00,0x2F
"SPI","result",1.636117167,0.000007542,0x06,0x2F
"SPI","disable",1.636125667,0.000000042,,
"SPI","enable",1.636163292,0.000000042,,
"SPI","result",1.636163792,0.000007542,0x01,0x2F
"SPI","result",1.636171792,0.000007542,0x2E,0x2F
"SPI","disable",1.636180292,0.000000042,,
"SPI","enable",1.636215292,0.000000042,,
"SPI","result",1.636215792,0.000007542,0x02,0x2F
"SPI","result",1.636223792,0.000007542,0x00,0x2F
"SPI","disable",1.636232292,0.000000042,,
"SPI","enable",1.636267292,0.000000042,,
"SPI","result",1.636267792,0.000007542,0x03,0x2F
"SPI","result",1.636275792,0.000007583,0x07,0x2F
"SPI","disable",1.636284333,0.000000042,,
"SPI","enable",1.636319333,0.000000042,,
"SPI","result",1.636319833,0.000007542,0x04,0x2F
"SPI","result",1.636327833,0.000007542,0x3D,0x2F
"SPI","disable",1.636336333,0.000000042,,
"SPI","enable",1.636371375,0.000000042,,
"SPI","result",1.636371875,0.000007542,0x05,0x2F
"SPI","result",1.636379875,0.000007542,0x54,0x2F
"SPI","disable",1.636388375,0.000000042,,
"SPI","enable",1.636423375,0.000000042,,
"SPI","result",1.636423875,0.000007542,0x06,0x2F
"SPI","result",1.636431875,0.000007542,0xFF,0x2F
"SPI","disable",1.636440375,0.000000042,,
"SPI","enable",1.636475375,0.000000042,,
"SPI","result",1.636475875,0.000007542,0x07,0x2F
"SPI","result",1.636483875,0.000007542,0x00,0x2F
"SPI","disable",1.636492375,0.000000042,,
"SPI","enable",1.636527375,0.000000042,,
"SPI","result",1.636527875,0.000007542,0x08,0x2F
"SPI","result",1.636535875,0.000007542,0x00,0x2F
"SPI","disable",1.636544375,0.000000042,,
"SPI","enable",1.636579375,0.000000042,,
"SPI","result",1.636579875,0.000007542,0x09,0x2F
"SPI","result",1.636587875,0.000007542,0x00,0x2F
"SPI","disable",1.636596375,0.000000042,,
"SPI","enable",1.636631375,0.000000042,,
"SPI","result",1.636631875,0.000007583,0x0B,0x2F
"SPI","result",1.636639917,0.000007542,0x08,0x2F
"SPI","disable",1.636648417,0.000000042,,
"SPI","enable",1.636683417,0.000000042,,
"SPI","result",1.636683917,0.000007542,0x0C,0x2F
"SPI","result",1.636691917,0.000007542,0x00,0x2F
"SPI","disable",1.636700458,0.000000042,,
"SPI","enable",1.636735458,0.000000042,,
"SPI","result",1.636735958,0.000007542,0x0D,0x2F
"SPI","result",1.636743958,0.000007542,0x21,0x2F
"SPI","disable",1.636752458,0.000000042,,
"SPI","enable",1.636787458,0.000000042,,
"SPI","result",1.636787958,0.000007542,0x0E,0x2F
"SPI","result",1.636795958,0.000007542,0x6B,0x2F
"SPI","disable",1.636804458,0.000000042,,
"SPI","enable",1.636839458,0.000000042,,
"SPI","result",1.636839958,0.000007542,0x0F,0x2F
"SPI","result",1.636847958,0.000007542,0xD0,0x2F
"SPI","disable",1.636856458,0.000000042,,
"SPI","enable",1.636891458,0.000000042,,
"SPI","result",1.636891958,0.000007542,0x10,0x2F
"SPI","result",1.636899958,0.000007542,0x5C,0x2F
"SPI","disable",1.636908458,0.000000042,,
"SPI","enable",1.636943458,0.000000042,,
"SPI","result",1.636943958,0.000007542,0x11,0x2F
"SPI","result",1.636951958,0.000007542,0x0F,0x2F
"SPI","disable",1.636960458,0.000000042,,
"SPI","enable",1.6369955,0.000000042,,
"SPI","result",1.636996,0.000007542,0x12,0x2F
"SPI","result",1.637004,0.000007542,0x05,0x2F
"SPI","disable",1.6370125,0.000000042,,
"SPI","enable",1.6370475,0.000000042,,
"SPI","result",1.637048,0.000007542,0x13,0x2F
"SPI","result",1.637056,0.000007542,0x22,0x2F
"SPI","disable",1.637064542,0.000000042,,
"SPI","enable",1.637099542,0.000000042,,
"SPI","result",1.637100042,0.000007542,0x14,0x2F
"SPI","result",1.637108042,0.000007542,0xF8,0x2F
"SPI","disable",1.637116542,0.000000042,,
"SPI","enable",1.637151542,0.000000042,,
"SPI","result",1.637152042,0.000007542,0x15,0x2F
"SPI","result",1.637160042,0.000007542,0x50,0x2F
"SPI","disable",1.637168542,0.000000042,,
"SPI","enable",1.637203542,0.000000042,,
"SPI","result",1.637204042,0.000007542,0x16,0x2F
"SPI","result",1.637212042,0.000007542,0x07,0x2F
"SPI","disable",1.637220542,0.000000042,,
"SPI","enable",1.637255542,0.000000042,,
"SPI","result",1.637256042,0.000007542,0x17,0x2F
"SPI","result",1.637264042,0.000007542,0x30,0x2F
"SPI","disable",1.637272542,0.000000042,,
"SPI","enable",1.637307542,0.000000042,,
"SPI","result",1.637308042,0.000007542,0x18,0x2F
"SPI","result",1.637316042,0.000007542,0x18,0x2F
"SPI","disable",1.637324542,0.000000042,,
"SPI","enable",1.637359583,0.000000042,,
"SPI","result",1.637360083,0.000007542,0x19,0x2F
"SPI","result",1.637368083,0.000007542,0x16,0x2F
"SPI","disable",1.637376583,0.000000042,,
"SPI","enable",1.637411583,0.000000042,,
"SPI","result",1.637412083,0.000007542,0x1A,0x2F
"SPI","result",1.637420083,0.000007542,0x6C,0x2F
"SPI","disable",1.637428625,0.000000042,,
"SPI","enable",1.637463625,0.000000042,,
"SPI","result",1.637464125,0.000007542,0x1B,0x2F
"SPI","result",1.637472125,0.000007542,0x43,0x2F
"SPI","disable",1.637480625,0.000000042,,
"SPI","enable",1.637515625,0.000000042,,
"SPI","result",1.637516125,0.000007542,0x1C,0x2F
"SPI","result",1.637524125,0.000007542,0x40,0x2F
"SPI","disable",1.637532625,0.000000042,,
"SPI","enable",1.637567625,0.000000042,,
"SPI","result",1.637568125,0.000007542,0x1D,0x2F
"SPI","result",1.637576125,0.000007542,0x91,0x2F
"SPI","disable",1.637584625,0.000000042,,
"SPI","enable",1.637619625,0.000000042,,
"SPI","result",1.637620125,0.000007542,0x21,0x2F
"SPI","result",1.637628125,0.000007542,0x56,0x2F
"SPI","disable",1.637636625,0.000000042,,
"SPI","enable",1.637671625,0.000000042,,
"SPI","result",1.637672125,0.000007542,0x22,0x2F
"SPI","result",1.637680125,0.000007542,0x10,0x2F
"SPI","disable",1.637688667,0.000000042,,
"SPI","enable",1.637723667,0.000000042,,
"SPI","result",1.637724167,0.000007542,0x23,0x2F
"SPI","result",1.637732167,0.000007542,0xE9,0x2F
"SPI","disable",1.637740667,0.000000042,,
"SPI","enable",1.637775667,0.000000042,,
"SPI","result",1.637776167,0.000007542,0x24,0x2F
"SPI","result",1.637784167,0.000007542,0x0A,0x2F
"SPI","disable",1.637792708,0.000000042,,
"SPI","enable",1.637827708,0.000000042,,
"SPI","result",1.637828208,0.000007542,0x25,0x2F
"SPI","result",1.637836208,0.000007542,0x00,0x2F
"SPI","disable",1.637844708,0.000000042,,
"SPI","enable",1.637879708,0.000000042,,
"SPI","result",1.637880208,0.000007542,0x26,0x2F
"SPI","result",1.637888208,0.000007542,0x11,0x2F
"SPI","disable",1.637896708,0.000000042,,
"SPI","enable",1.637931708,0.000000042,,
"SPI","result",1.637932208,0.000007542,0x2C,0x2F
"SPI","result",1.637940208,0.000007542,0x88,0x2F
"SPI","disable",1.637948708,0.000000042,,
"SPI","enable",1.637983708,0.000000042,,
"SPI","result",1.637984208,0.000007542,0x2D,0x2F
"SPI","result",1.637992208,0.000007542,0x31,0x2F
"SPI","disable",1.638000708,0.000000042,,
"SPI","enable",1.638035708,0.000000042,,
"SPI","result",1.638036208,0.000007542,0x2E,0x2F
"SPI","result",1.638044208,0.000007542,0x0B,0x2F
"SPI","disable",1.63805275,0.000000042,,
"SPI","enable",1.638092333,0.000000042,,
"SPI","result",1.638092833,0.000007542,0x33,0x2F
"SPI","disable",1.638101375,0.000000042,,
"SPI","enable",1.6381505,0.000000042,,
"SPI","result",1.638151,0.000007542,0x8B,0x20
"SPI","result",1.638159,0.000007542,0x00,0x08
"SPI","disable",1.6381675,0.000000042,,
"SPI","enable",1.638205917,0.000000042,,
"SPI","result",1.638206417,0.000007542,0x8C,0x20
"SPI","result",1.638214417,0.000007542,0x00,0x00
"SPI","disable",1.638222917,0.000000042,,
"SPI","enable",1.638261917,0.000000042,,
"SPI","result",1.638262417,0.000007542,0x8D,0x20
"SPI","result",1.638270417,0.000007542,0x00,0x21
"SPI","disable",1.638278958,0.000000042,,
"SPI","enable",1.638317333,0.000000042,,
"SPI","result",1.638317833,0.000007542,0x8E,0x20
"SPI","result",1.638325833,0.000007542,0x00,0x6B
"SPI","disable",1.638334333,0.000000042,,
"SPI","enable",1.638372708,0.000000042,,
"SPI","result",1.638373208,0.000007542,0x8F,0x20
"SPI","result",1.638381208,0.000007542,0x00,0xD0
"SPI","disable",1.638389708,0.000000042,,
"SPI","enable",1.638428125,0.000000042,,
"SPI","result",1.638428625,0.000007542,0x90,0x20
"SPI","result",1.638436625,0.000007542,0x00,0x5C
"SPI","disable",1.638445125,0.000000042,,
"SPI","enable",1.638484167,0.000000042,,
"SPI","result",1.638484667,0.000007542,0x91,0x20
"SPI","result",1.638492667,0.000007542,0x00,0x0F
"SPI","disable",1.638501167,0.000000042,,
"SPI","enable",1.638539542,0.000000042,,
"SPI","result",1.638540042,0.000007542,0x92,0x20
"SPI","result",1.638548042,0.000007542,0x00,0x05
"SPI","disable",1.638556583,0.000000042,,
"SPI","enable",1.638594958,0.000000042,,
"SPI","result",1.638595458,0.000007542,0x93,0x20
"SPI","result",1.638603458,0.000007542,0x00,0x22
"SPI","disable",1.638611958,0.000000042,,
"SPI","enable",1.638650333,0.000000042,,
"SPI","result",1.638650833,0.000007542,0x94,0x20
"SPI","result",1.638658833,0.000007542,0x00,0xF8
"SPI","disable",1.638667375,0.000000042,,
"SPI","enable",1.638706375,0.000000042,,
"SPI","result",1.638706875,0.000007542,0x95,0x20
"SPI","result",1.638714875,0.000007542,0x00,0x50
"SPI","disable",1.638723375,0.000000042,,
"SPI","enable",1.63876175,0.000000042,,
"SPI","result",1.63876225,0.000007542,0xA3,0x20
"SPI","result",1.63877025,0.000007542,0x00,0xE9
"SPI","disable",1.638778792,0.000000042,,
"SPI","enable",1.638817167,0.000000042,,
"SPI","result",1.638817667,0.000007542,0xA4,0x20
"SPI","result",1.638825667,0.000007542,0x00,0x0A
"SPI","disable",1.638834167,0.000000042,,
"SPI","enable",1.638873208,0.000000042,,
"SPI","result",1.638873708,0.000007542,0xA5,0x20
"SPI","result",1.638881708,0.000007542,0x00,0x00
"SPI","disable",1.638890208,0.000000042,,
"SPI","enable",1.638928625,0.000000042,,
"SPI","result",1.638929125,0.000007542,0xA6,0x20
"SPI","result",1.638937125,0.000007542,0x00,0x11
"SPI","disable",1.638945625,0.000000042,,
"SPI","enable",1.663544167,0.000000042,,
"SPI","result",1.663544667,0.000007542,0x3A,0x2F
"SPI","disable",1.663553167,0.000000042,,
"SPI","enable",1.663590333,0.000000042,,
"SPI","result",1.663590833,0.000007542,0x34,0x2F
"SPI","disable",1.663599333,0.000000042,,
"SPI","enable",1.668382208,0.000000042,,
"SPI","result",1.668382708,0.000007542,0xB5,0x10
"SPI","result",1.668390708,0.000007542,0x00,0x5F
"SPI","disable",1.668399208,0.000000042,,
"SPI","enable",1.674810208,0.000000042,,
"SPI","result",1.674810708,0.000007542,0xB5,0x20
"SPI","result",1.674818708,0.000007542,0x00,0x2F
"SPI","disable",1.67482725,0.000000042,,
"SPI","enable",1.680987417,0.000000042,,
"SPI","result",1.680987917,0.000007542,0xB5,0x20
"SPI","result",1.680995917,0.000007542,0x00,0x2F
"SPI","disable",1.681004417,0.000000042,,
"SPI","enable",1.687134667,0.000000042,,
"SPI","result",1.687135125,0.000007583,0xB5,0x20
"SPI","result",1.687143167,0.000007542,0x00,0x2F
"SPI","disable",1.687151667,0.000000042,,
"SPI","enable",1.69329975,0.000000042,,
"SPI","result",1.69330025,0.000007542,0xB5,0x20
"SPI","result",1.69330825,0.000007542,0x00,0x2F
"SPI","disable",1.69331675,0.000000042,,
"SPI","enable",1.699467208,0.000000042,,
"SPI","result",1.699467708,0.000007542,0xB5,0x20
"SPI","result",1.699475708,0.000007542,0x00,0x2F
"SPI","disable",1.69948425,0.000000042,,
"SPI","enable",1.705662042,0.000000042,,
"SPI","result",1.705662542,0.000007542,0xB5,0x20
"SPI","result",1.705670542,0.000007542,0x00,0x2F
"SPI","disable",1.705679042,0.000000042,,
"SPI","enable",1.711794833,0.000000042,,
"SPI","result",1.711795333,0.000007542,0xB5,0x20
"SPI","result",1.711803333,0.000007542,0x00,0x2F
"SPI","disable",1.711811833,0.000000042,,
"SPI","enable",1.729942833,0.000000042,,
"SPI","result",1.729943333,0.000007542,0xB5,0x20
"SPI","result",1.729951333,0.000007542,0x00,0x2F
"SPI","disable",1.729959875,0.000000042,,
"SPI","enable",1.730003375,0.000000042,,
"SPI","result",1.730003875,0.000007542,0xB5,0x20
"SPI","result",1.730011875,0.000007542,0x00,0x2F
"SPI","disable",1.730020375,0.000000042,,
"SPI","enable",1.73005875,0.000000042,,
"SPI","result",1.73005925,0.000007542,0xBB,0x20
"SPI","result",1.73006725,0.000007542,0x00,0x2F
"SPI","disable",1.730075792,0.000000042,,
"SPI","enable",1.730114833,0.000000042,,
"SPI","result",1.730115333,0.000007542,0xB8,0x20
"SPI","result",1.730123333,0.000007542,0x00,0x2F
"SPI","disable",1.730131833,0.000000042,,
"SPI","enable",1.730170208,0.000000042,,
"SPI","result",1.730170708,0.000007542,0x96,0x20
"SPI","result",1.730178708,0.000007542,0x00,0x07
"SPI","disable",1.730187208,0.000000042,,
"SPI","enable",1.730225583,0.000000042,,
"SPI","result",1.730226083,0.000007542,0x97,0x20
"SPI","result",1.730234083,0.000007542,0x00,0x30
"SPI","disable",1.730242625,0.000000042,,
"SPI","enable",1.741331,0.000000042,,
"SPI","result",1.7413315,0.000007542,0x36,0x2F
"SPI","disable",1.74134,0.000000042,,
"SPI","enable",1.741377167,0.000000042,,
"SPI","result",1.741377667,0.000007542,0x3A,0xFF
"SPI","disable",1.741386167,0.000000042,,
"SPI","enable",1.741424167,0.000000042,,
"SPI","result",1.741424667,0.000007542,0x34,0xFF
"SPI","disable",1.741433208,0.000000042,,
"SPI","enable",1.741473917,0.000000042,,
"SPI","result",1.741474417,0.000007542,0xB5,0xFF
"SPI","result",1.741482417,0.000007542,0x00,0xFF
"SPI","disable",1.741490958,0.000000042,,
"SPI","enable",1.747546917,0.000000042,,
"SPI","result",1.747547417,0.000007542,0xB5,0x00
"SPI","result",1.747555417,0.000007542,0x00,0x5F
"SPI","disable",1.747563917,0.000000042,,
